T2CF8 12468:924 SEGGER J-Link V6.32i Log File (0001ms, 25013ms total)
T2CF8 12468:924 DLL Compiled: Jul 24 2018 15:19:55 (0001ms, 25013ms total)
T2CF8 12468:924 Logging started @ 2020-07-14 12:56 (0001ms, 25013ms total)
T2CF8 12468:925 JLINK_SetWarnOutHandler(...) (0000ms, 25013ms total)
T2CF8 12468:925 JLINK_OpenEx(...)
Firmware: J-Link ARM V8 compiled Nov 28 2014 13:44:46
Hardware: V8.00
S/N: 268003071
OEM: SEGGER-EDU
Feature(s): FlashBP, GDB
TELNET listener socket opened on port 19021WEBSRV 
Starting webserver (0043ms, 25056ms total)
T2CF8 12468:925 WEBSRV Webserver running on local port 19080 (0043ms, 25056ms total)
T2CF8 12468:925   returns O.K. (0043ms, 25056ms total)
T2CF8 12468:969 JLINK_GetEmuCaps()  returns 0xB9FF7BBF (0000ms, 25056ms total)
T2CF8 12468:970 JLINK_TIF_GetAvailable(...) (0001ms, 25057ms total)
T2CF8 12468:971 JLINK_SetErrorOutHandler(...) (0000ms, 25057ms total)
T2CF8 12468:971 JLINK_ExecCommand("ProjectFile = "C:\Users\user\Desktop\Rabochii_Stol_15_09_2019\Moi_Projekti\STM32\CMSIS_examples\stm32f4\time_measure\JLinkSettings.ini"", ...).   returns 0x00 (0063ms, 25120ms total)
T2CF8 12469:034 JLINK_ExecCommand("Device = STM32F407VETx", ...). Device "STM32F407VE" selected.  returns 0x00 (0027ms, 25147ms total)
T2CF8 12469:066 JLINK_ExecCommand("DisableConnectionTimeout", ...).   returns 0x01 (0000ms, 25147ms total)
T2CF8 12469:066 JLINK_GetHardwareVersion()  returns 0x13880 (0000ms, 25147ms total)
T2CF8 12469:066 JLINK_GetDLLVersion()  returns 63209 (0000ms, 25147ms total)
T2CF8 12469:067 JLINK_GetDLLVersion()  returns 63209 (0000ms, 25147ms total)
T2CF8 12469:067 JLINK_GetCompileDateTime() (0000ms, 25147ms total)
T2CF8 12469:067 JLINK_GetFirmwareString(...) (0000ms, 25147ms total)
T2CF8 12469:067 JLINK_GetHardwareVersion()  returns 0x13880 (0000ms, 25147ms total)
T2CF8 12469:067 JLINK_TIF_Select(JLINKARM_TIF_SWD)  returns 0x00 (0015ms, 25162ms total)
T2CF8 12469:082 JLINK_SetSpeed(50000) (0002ms, 25164ms total)
T2CF8 12469:084 JLINK_GetId() >0x10B TIF>Found SW-DP with ID 0x2BA01477 >0x0D TIF> >0x28 TIF> >0x0D TIF> >0x28 TIF> >0x0D TIF> >0x28 TIF> >0x0D TIF> >0x28 TIF> >0x0D TIF> >0x21 TIF> >0x0D TIF> >0x28 TIF> >0x0D TIF> >0x28 TIF> >0x0D TIF> >0x28 TIF> >0x0D TIF> >0x21 TIF> >0x0D TIF> >0x21 TIF> >0x0D TIF> >0x28 TIF> >0x0D TIF> >0x21 TIF> >0x0D TIF> >0x21 TIF> >0x0D TIF> >0x28 TIF> >0x0D TIF> >0x21 TIF> >0x0D TIF> >0x21 TIF> >0x0D TIF> >0x28 TIF> >0x0D TIF> >0x21 TIF> >0x0D TIF> >0x21 TIF> >0x0D TIF>
 >0x28 TIF> >0x0D TIF> >0x21 TIF> >0x0D TIF> >0x21 TIF> >0x0D TIF> >0x28 TIF> >0x0D TIF> >0x21 TIF> >0x0D TIF> >0x21 TIF> >0x10B TIF>Found SW-DP with ID 0x2BA01477 >0x0D TIF> >0x28 TIF> >0x0D TIF> >0x28 TIF> >0x0D TIF> >0x28 TIF> >0x0D TIF> >0x28 TIF> >0x0D TIF> >0x21 TIF> >0x0D TIF> >0x28 TIF>Scanning AP map to find all available APs >0x0D TIF> >0x28 TIF> >0x0D TIF> >0x21 TIF> >0x0D TIF> >0x21 TIF> >0x0D TIF> >0x28 TIF> >0x0D TIF> >0x21 TIF> >0x0D TIF> >0x21 TIF>
AP[1]: Stopped AP scan as end of AP map has been reachedAP[0]: AHB-AP (IDR: 0x24770011)Iterating through AP map to find AHB-AP to use >0x42 TIF> >0x28 TIF> >0x0D TIF> >0x28 TIF> >0x0D TIF> >0x21 TIF> >0x0D TIF> >0x21 TIF> >0x42 TIF> >0x28 TIF> >0x0D TIF> >0x28 TIF> >0x0D TIF> >0x28 TIF> >0x0D TIF> >0x21 TIF> >0x0D TIF> >0x21 TIF>AP[0]: Core foundAP[0]: AHB-AP ROM base: 0xE00FF000 >0x0D TIF> >0x28 TIF> >0x0D TIF> >0x28 TIF> >0x0D TIF> >0x28 TIF> >0x0D TIF> >0x21 TIF> >0x0D TIF> >0x21 TIF>
CPUID register: 0x410FC241. Implementer code: 0x41 (ARM)Found Cortex-M4 r0p1, Little endian. -- Max. mem block: 0x000004F0 -- CPU_ReadMem(4 bytes @ 0xE000EDF0) -- CPU_WriteMem(4 bytes @ 0xE000EDF0) -- CPU_ReadMem(4 bytes @ 0xE0002000)FPUnit: 6 code (BP) slots and 2 literal slots -- CPU_ReadMem(4 bytes @ 0xE000EDFC) -- CPU_WriteMem(4 bytes @ 0xE000EDFC) -- CPU_ReadMem(4 bytes @ 0xE0001000) -- CPU_WriteMem(4 bytes @ 0xE0001000) -- CPU_ReadMem(4 bytes @ 0xE000ED88) -- CPU_WriteMem(4 bytes @ 0xE000ED88)
 -- CPU_ReadMem(4 bytes @ 0xE000ED88) -- CPU_WriteMem(4 bytes @ 0xE000ED88)CoreSight components:ROMTbl[0] @ E00FF000 -- CPU_ReadMem(16 bytes @ 0xE00FF000) -- CPU_ReadMem(16 bytes @ 0xE000EFF0) -- CPU_ReadMem(16 bytes @ 0xE000EFE0)ROMTbl[0][0]: E000E000, CID: B105E00D, PID: 000BB00C SCS-M7 -- CPU_ReadMem(16 bytes @ 0xE0001FF0) -- CPU_ReadMem(16 bytes @ 0xE0001FE0)ROMTbl[0][1]: E0001000, CID: B105E00D, PID: 003BB002 DWT -- CPU_ReadMem(16 bytes @ 0xE0002FF0) -- CPU_ReadMem(16 bytes @ 0xE0002FE0)
ROMTbl[0][2]: E0002000, CID: B105E00D, PID: 002BB003 FPB -- CPU_ReadMem(16 bytes @ 0xE0000FF0) -- CPU_ReadMem(16 bytes @ 0xE0000FE0)ROMTbl[0][3]: E0000000, CID: B105E00D, PID: 003BB001 ITM -- CPU_ReadMem(16 bytes @ 0xE00FF010) -- CPU_ReadMem(16 bytes @ 0xE0040FF0) -- CPU_ReadMem(16 bytes @ 0xE0040FE0)ROMTbl[0][4]: E0040000, CID: B105900D, PID: 000BB9A1 TPIU -- CPU_ReadMem(16 bytes @ 0xE0041FF0) -- CPU_ReadMem(16 bytes @ 0xE0041FE0)ROMTbl[0][5]: E0041000, CID: B105900D, PID: 000BB925 ETM >0x0D TIF>
 >0x21 TIF>  returns 0x2BA01477 (0326ms, 25490ms total)
T2CF8 12469:410 JLINK_GetDLLVersion()  returns 63209 (0000ms, 25490ms total)
T2CF8 12469:410 JLINK_CORE_GetFound()  returns 0xE0000FF (0000ms, 25490ms total)
T2CF8 12469:410 JLINK_GetDebugInfo(0x100 = JLINKARM_ROM_TABLE_ADDR_INDEX) -- Value=0xE00FF000  returns 0x00 (0000ms, 25490ms total)
T2CF8 12469:410 JLINK_GetDebugInfo(0x100 = JLINKARM_ROM_TABLE_ADDR_INDEX) -- Value=0xE00FF000  returns 0x00 (0000ms, 25490ms total)
T2CF8 12469:410 JLINK_GetDebugInfo(0x101 = JLINKARM_DEBUG_INFO_ETM_ADDR_INDEX) -- Value=0xE0041000  returns 0x00 (0000ms, 25490ms total)
T2CF8 12469:410 JLINK_ReadMemEx(0xE0041FD0, 0x0020 Bytes, ..., Flags = 0x02000004) -- CPU_ReadMem(32 bytes @ 0xE0041FD0) - Data: 04 00 00 00 00 00 00 00 00 00 00 00 00 00 00 00 ...  returns 0x20 (0002ms, 25492ms total)
T2CF8 12469:412 JLINK_GetDebugInfo(0x102 = JLINKARM_DEBUG_INFO_MTB_ADDR_INDEX) -- Value=0x00000000  returns 0x00 (0000ms, 25492ms total)
T2CF8 12469:412 JLINK_GetDebugInfo(0x103 = JLINKARM_DEBUG_INFO_TPIU_ADDR_INDEX) -- Value=0xE0040000  returns 0x00 (0000ms, 25492ms total)
T2CF8 12469:412 JLINK_GetDebugInfo(0x104 = JLINKARM_DEBUG_INFO_ITM_ADDR_INDEX) -- Value=0xE0000000  returns 0x00 (0000ms, 25492ms total)
T2CF8 12469:412 JLINK_GetDebugInfo(0x105 = JLINKARM_DEBUG_INFO_DWT_ADDR_INDEX) -- Value=0xE0001000  returns 0x00 (0000ms, 25492ms total)
T2CF8 12469:412 JLINK_GetDebugInfo(0x106 = JLINKARM_DEBUG_INFO_FPB_ADDR_INDEX) -- Value=0xE0002000  returns 0x00 (0000ms, 25492ms total)
T2CF8 12469:412 JLINK_GetDebugInfo(0x107 = JLINKARM_DEBUG_INFO_NVIC_ADDR_INDEX) -- Value=0xE000E000  returns 0x00 (0000ms, 25492ms total)
T2CF8 12469:412 JLINK_GetDebugInfo(0x10C = JLINKARM_DEBUG_INFO_DBG_ADDR_INDEX) -- Value=0xE000EDF0  returns 0x00 (0000ms, 25492ms total)
T2CF8 12469:412 JLINK_GetDebugInfo(0x01 = Unknown) -- Value=0x00000001  returns 0x00 (0000ms, 25492ms total)
T2CF8 12469:412 JLINK_ReadMemU32(0xE000ED00, 0x0001 Items, ...) -- CPU_ReadMem(4 bytes @ 0xE000ED00) - Data: 41 C2 0F 41  returns 0x01 (0002ms, 25494ms total)
T2CF8 12469:414 JLINK_GetDebugInfo(0x10F = JLINKARM_DEBUG_INFO_HAS_CORTEX_M_SECURITY_EXT_INDEX) -- Value=0x00000000  returns 0x00 (0000ms, 25494ms total)
T2CF8 12469:414 JLINK_Halt()  returns 0x00 (0011ms, 25505ms total)
T2CF8 12469:425 JLINK_ReadMemU32(0xE000EDF0, 0x0001 Items, ...) -- CPU_ReadMem(4 bytes @ 0xE000EDF0) - Data: 03 00 03 00  returns 0x01 (0009ms, 25514ms total)
T2CF8 12469:434 JLINK_WriteU32(0xE000EDF0, 0xA05F0003) -- CPU_WriteMem(4 bytes @ 0xE000EDF0)  returns 0x00 (0002ms, 25516ms total)
T2CF8 12469:436 JLINK_WriteU32(0xE000EDFC, 0x01000000) -- CPU_WriteMem(4 bytes @ 0xE000EDFC)  returns 0x00 (0001ms, 25517ms total)
T2CF8 12469:437 JLINK_GetHWStatus(...)  returns 0x00 (0001ms, 25518ms total)
T2CF8 12469:438 JLINK_GetNumBPUnits(Type = 0xFFFFFF00)  returns 0x06 (0000ms, 25518ms total)
T2CF8 12469:438 JLINK_GetNumBPUnits(Type = 0xF0)  returns 0x2000 (0000ms, 25518ms total)
T2CF8 12469:438 JLINK_GetNumWPUnits()  returns 0x04 (0000ms, 25518ms total)
T2CF8 12469:438 JLINK_GetSpeed()  returns 0xFA0 (0000ms, 25518ms total)
T2CF8 12469:438 JLINK_ReadMemU32(0xE000E004, 0x0001 Items, ...) -- CPU_ReadMem(4 bytes @ 0xE000E004) - Data: 02 00 00 00  returns 0x01 (0001ms, 25519ms total)
T2CF8 12469:439 JLINK_ReadMemU32(0xE000E004, 0x0001 Items, ...) -- CPU_ReadMem(4 bytes @ 0xE000E004) - Data: 02 00 00 00  returns 0x01 (0001ms, 25520ms total)
T2CF8 12469:440 JLINK_WriteMemEx(0xE0001000, 0x001C Bytes, ..., Flags = 0x02000004) - Data: 01 00 00 00 00 00 00 00 00 00 00 00 00 00 00 00 ... -- CPU_WriteMem(28 bytes @ 0xE0001000)  returns 0x1C (0002ms, 25522ms total)
T2CF8 12469:442 JLINK_ReadReg(R15 (PC))  returns 0x080004BE (0001ms, 25523ms total)
T2CF8 12469:443 JLINK_ReadReg(XPSR)  returns 0x61000000 (0000ms, 25523ms total)
T2CF8 12469:443 JLINK_WriteU32(0xE0041FB0, 0xC5ACCE55) -- CPU_WriteMem(4 bytes @ 0xE0041FB0)  returns 0x00 (0001ms, 25524ms total)
T2CF8 12469:444 JLINK_ReadMemU32(0xE0041000, 0x0001 Items, ...) -- CPU_ReadMem(4 bytes @ 0xE0041000) - Data: 01 00 00 00  returns 0x01 (0001ms, 25525ms total)
T2CF8 12469:445 JLINK_WriteU32(0xE0041000, 0x00000000) -- CPU_WriteMem(4 bytes @ 0xE0041000)  returns 0x00 (0005ms, 25530ms total)
T2CF8 12469:453 JLINK_SWO_Control(JLINKARM_SWO_CMD_GET_SPEED_INFO, ...)  returns 0x00 (0009ms, 25539ms total)
T2CF8 12469:462 JLINK_SWO_Control(JLINKARM_SWO_CMD_STOP, ...)  returns 0x00 (0000ms, 25539ms total)
T2CF8 12469:462 JLINK_SWO_Control(JLINKARM_SWO_CMD_START, ...) -- UART -- 2000000bps -- CPU_ReadMem(4 bytes @ 0xE0042004)  returns 0x00 (0007ms, 25546ms total)
T2CF8 12469:470 JLINK_WriteU32(0xE0040004, 0x00000001) -- CPU_WriteMem(4 bytes @ 0xE0040004)  returns 0x00 (0001ms, 25547ms total)
T2CF8 12469:471 JLINK_WriteU32(0xE0040010, 0x00000004)  returns 0x00 (0000ms, 25547ms total)
T2CF8 12469:471 JLINK_WriteU32(0xE00400F0, 0x00000002)  returns 0x00 (0000ms, 25547ms total)
T2CF8 12469:471 JLINK_WriteU32(0xE0040304, 0x00000000)  returns 0x00 (0000ms, 25547ms total)
T2CF8 12469:471 JLINK_WriteU32(0xE0000FB0, 0xC5ACCE55) -- CPU_WriteMem(4 bytes @ 0xE0000FB0)  returns 0x00 (0014ms, 25561ms total)
T2CF8 12469:486 JLINK_WriteU32(0xE0000E80, 0x0001000D)  returns 0x00 (0000ms, 25561ms total)
T2CF8 12469:486 JLINK_WriteU32(0xE0000E00, 0xFFFFFFFF)  returns 0x00 (0000ms, 25561ms total)
T2CF8 12469:486 JLINK_WriteU32(0xE0000E40, 0x00000008)  returns 0x00 (0000ms, 25561ms total)
T2CF8 12469:486 JLINK_WriteU32(0xE0001000, 0x0001061F)  returns 0x00 (0000ms, 25561ms total)
T2CF8 12469:544 JLINK_ReadMemEx(0xE0001004, 0x0004 Bytes, ..., Flags = 0x02000000) -- CPU_ReadMem(4 bytes @ 0xE0001004) - Data: 00 00 00 00  returns 0x04 (0002ms, 25563ms total)
T2CF8 12469:621 JLINK_SetResetType(JLINKARM_CM3_RESET_TYPE_NORMAL)  returns JLINKARM_CM3_RESET_TYPE_NORMAL (0000ms, 25563ms total)
T2CF8 12469:621 JLINK_Reset() -- CPU_WriteMem(4 bytes @ 0xE0000E00) -- CPU_WriteMem(4 bytes @ 0xE0000E40) -- CPU_WriteMem(4 bytes @ 0xE0000E80) -- CPU_WriteMem(4 bytes @ 0xE0001000) -- CPU_WriteMem(4 bytes @ 0xE0040010) -- CPU_WriteMem(4 bytes @ 0xE00400F0) -- CPU_WriteMem(4 bytes @ 0xE0040304) -- CPU_WriteMem(4 bytes @ 0xE000EDF0) -- CPU_WriteMem(4 bytes @ 0xE000EDFC)Reset: Halt core after reset via DEMCR.VC_CORERESET. >0x35 TIF>Reset: Reset device via AIRCR.SYSRESETREQ.
 -- CPU_WriteMem(4 bytes @ 0xE000ED0C) >0x0D TIF> >0x28 TIF> -- CPU_ReadMem(4 bytes @ 0xE000EDF0) -- CPU_ReadMem(4 bytes @ 0xE000EDF0) -- CPU_WriteMem(4 bytes @ 0xE000EDF0) -- CPU_WriteMem(4 bytes @ 0xE000EDFC) -- CPU_ReadMem(4 bytes @ 0xE000EDF0) -- CPU_WriteMem(4 bytes @ 0xE0002000) -- CPU_ReadMem(4 bytes @ 0xE000EDFC) -- CPU_ReadMem(4 bytes @ 0xE0001000) -- CPU_ReadMem(4 bytes @ 0xE0042004) (0110ms, 25673ms total)
T2CF8 12469:733 JLINK_WriteU32(0xE000EDFC, 0x01000000) -- CPU_WriteMem(4 bytes @ 0xE000EDFC)  returns 0x00 (0001ms, 25674ms total)
T2CF8 12469:734 JLINK_ReadReg(R15 (PC))  returns 0x08000228 (0000ms, 25674ms total)
T2CF8 12469:734 JLINK_ReadReg(XPSR)  returns 0x01000000 (0000ms, 25674ms total)
T2CF8 12469:996 JLINK_WriteU32(0xE0001008, 0x00000000)  returns 0x00 (0000ms, 25674ms total)
T2CF8 12469:996 JLINK_WriteU32(0xE000100C, 0x00000000)  returns 0x00 (0000ms, 25674ms total)
T2CF8 12469:996 JLINK_WriteU32(0xE0001010, 0x00000000)  returns 0x00 (0000ms, 25674ms total)
T2CF8 12469:996 JLINK_WriteU32(0xE0001014, 0x00000000)  returns 0x00 (0000ms, 25674ms total)
T2CF8 12469:996 JLINK_WriteU32(0xE0001018, 0x00000000)  returns 0x00 (0000ms, 25674ms total)
T2CF8 12470:072 JLINK_ReadMemEx(0x40023800, 0x0018 Bytes, ..., Flags = 0x02000004) -- CPU_ReadMem(24 bytes @ 0x40023800) - Data: 83 80 00 00 10 30 00 24 00 00 00 00 00 00 00 00 ...  returns 0x18 (0002ms, 25676ms total)
T2CF8 12470:075 JLINK_ReadMemEx(0x40023818, 0x0004 Bytes, ..., Flags = 0x02000004) -- CPU_ReadMem(4 bytes @ 0x40023818) - Data: 00 00 00 00  returns 0x04 (0001ms, 25677ms total)
T2CF8 12470:076 JLINK_ReadMemEx(0x40023820, 0x0004 Bytes, ..., Flags = 0x02000004) -- CPU_ReadMem(4 bytes @ 0x40023820) - Data: 00 00 00 00  returns 0x04 (0001ms, 25678ms total)
T2CF8 12470:077 JLINK_ReadMemEx(0x40023824, 0x0004 Bytes, ..., Flags = 0x02000004) -- CPU_ReadMem(4 bytes @ 0x40023824) - Data: 00 00 00 00  returns 0x04 (0001ms, 25679ms total)
T2CF8 12470:078 JLINK_ReadMemEx(0x40023830, 0x0008 Bytes, ..., Flags = 0x02000004) -- CPU_ReadMem(8 bytes @ 0x40023830) - Data: 00 00 10 00 00 00 00 00  returns 0x08 (0001ms, 25680ms total)
T2CF8 12470:079 JLINK_ReadMemEx(0x40023838, 0x0004 Bytes, ..., Flags = 0x02000004) -- CPU_ReadMem(4 bytes @ 0x40023838) - Data: 00 00 00 00  returns 0x04 (0001ms, 25681ms total)
T2CF8 12470:081 JLINK_ReadMemEx(0x40023840, 0x0004 Bytes, ..., Flags = 0x02000004) -- CPU_ReadMem(4 bytes @ 0x40023840) - Data: 00 00 00 00  returns 0x04 (0001ms, 25682ms total)
T2CF8 12470:082 JLINK_ReadMemEx(0x40023844, 0x0004 Bytes, ..., Flags = 0x02000004) -- CPU_ReadMem(4 bytes @ 0x40023844) - Data: 00 00 00 00  returns 0x04 (0001ms, 25683ms total)
T2CF8 12470:083 JLINK_ReadMemEx(0x40023850, 0x0008 Bytes, ..., Flags = 0x02000004) -- CPU_ReadMem(8 bytes @ 0x40023850) - Data: FF 91 67 7E F1 00 00 00  returns 0x08 (0001ms, 25684ms total)
T2CF8 12470:084 JLINK_ReadMemEx(0x40023858, 0x0004 Bytes, ..., Flags = 0x02000004) -- CPU_ReadMem(4 bytes @ 0x40023858) - Data: 01 00 00 00  returns 0x04 (0001ms, 25685ms total)
T2CF8 12470:085 JLINK_ReadMemEx(0x40023860, 0x0004 Bytes, ..., Flags = 0x02000004) -- CPU_ReadMem(4 bytes @ 0x40023860) - Data: FF C9 FE 36  returns 0x04 (0001ms, 25686ms total)
T2CF8 12470:087 JLINK_ReadMemEx(0x40023864, 0x0004 Bytes, ..., Flags = 0x02000004) -- CPU_ReadMem(4 bytes @ 0x40023864) - Data: 33 5F 07 00  returns 0x04 (0001ms, 25687ms total)
T2CF8 12470:088 JLINK_ReadMemEx(0x40023870, 0x0004 Bytes, ..., Flags = 0x02000004) -- CPU_ReadMem(4 bytes @ 0x40023870) - Data: 00 00 00 00  returns 0x04 (0001ms, 25688ms total)
T2CF8 12470:089 JLINK_ReadMemEx(0x40023874, 0x0004 Bytes, ..., Flags = 0x02000004) -- CPU_ReadMem(4 bytes @ 0x40023874) - Data: 00 00 00 1E  returns 0x04 (0001ms, 25689ms total)
T2CF8 12470:090 JLINK_ReadMemEx(0x40023880, 0x0004 Bytes, ..., Flags = 0x02000004) -- CPU_ReadMem(4 bytes @ 0x40023880) - Data: 00 00 00 00  returns 0x04 (0001ms, 25690ms total)
T2CF8 12470:091 JLINK_ReadMemEx(0x40023884, 0x0004 Bytes, ..., Flags = 0x02000004) -- CPU_ReadMem(4 bytes @ 0x40023884) - Data: 00 30 00 20  returns 0x04 (0001ms, 25691ms total)
T2CF8 12473:003 JLINK_ReadReg(R0)  returns 0x00000000 (0001ms, 25692ms total)
T2CF8 12473:005 JLINK_ReadReg(R1)  returns 0x00000000 (0000ms, 25692ms total)
T2CF8 12473:005 JLINK_ReadReg(R2)  returns 0x00000000 (0000ms, 25692ms total)
T2CF8 12473:005 JLINK_ReadReg(R3)  returns 0x00000000 (0000ms, 25692ms total)
T2CF8 12473:005 JLINK_ReadReg(R4)  returns 0x00000000 (0000ms, 25692ms total)
T2CF8 12473:005 JLINK_ReadReg(R5)  returns 0x00000000 (0000ms, 25692ms total)
T2CF8 12473:005 JLINK_ReadReg(R6)  returns 0x00000000 (0000ms, 25692ms total)
T2CF8 12473:005 JLINK_ReadReg(R7)  returns 0x00000000 (0000ms, 25692ms total)
T2CF8 12473:005 JLINK_ReadReg(R8)  returns 0x00000000 (0000ms, 25692ms total)
T2CF8 12473:005 JLINK_ReadReg(R9)  returns 0x00000000 (0000ms, 25692ms total)
T2CF8 12473:005 JLINK_ReadReg(R10)  returns 0x00000000 (0000ms, 25692ms total)
T2CF8 12473:005 JLINK_ReadReg(R11)  returns 0x00000000 (0000ms, 25692ms total)
T2CF8 12473:005 JLINK_ReadReg(R12)  returns 0x00000000 (0000ms, 25692ms total)
T2CF8 12473:005 JLINK_ReadReg(R13 (SP))  returns 0x20000670 (0000ms, 25692ms total)
T2CF8 12473:005 JLINK_ReadReg(R14)  returns 0xFFFFFFFF (0000ms, 25692ms total)
T2CF8 12473:005 JLINK_ReadReg(R15 (PC))  returns 0x08000228 (0000ms, 25692ms total)
T2CF8 12473:005 JLINK_ReadReg(XPSR)  returns 0x01000000 (0000ms, 25692ms total)
T2CF8 12473:005 JLINK_ReadReg(MSP)  returns 0x20000670 (0000ms, 25692ms total)
T2CF8 12473:005 JLINK_ReadReg(PSP)  returns 0x00000000 (0000ms, 25692ms total)
T2CF8 12473:005 JLINK_ReadReg(CFBP)  returns 0x00000000 (0000ms, 25692ms total)
T2CF8 12473:005 JLINK_ReadReg(FPSCR)  returns 0x00000000 (0006ms, 25698ms total)
T2CF8 12473:012 JLINK_ReadReg(FPS0)  returns 0x00000000 (0000ms, 25698ms total)
T2CF8 12473:012 JLINK_ReadReg(FPS1)  returns 0x00000000 (0000ms, 25698ms total)
T2CF8 12473:012 JLINK_ReadReg(FPS2)  returns 0x00000000 (0000ms, 25698ms total)
T2CF8 12473:012 JLINK_ReadReg(FPS3)  returns 0x00000000 (0000ms, 25698ms total)
T2CF8 12473:012 JLINK_ReadReg(FPS4)  returns 0x00000000 (0000ms, 25698ms total)
T2CF8 12473:012 JLINK_ReadReg(FPS5)  returns 0x00000000 (0000ms, 25698ms total)
T2CF8 12473:012 JLINK_ReadReg(FPS6)  returns 0x00000000 (0000ms, 25698ms total)
T2CF8 12473:012 JLINK_ReadReg(FPS7)  returns 0x00000000 (0000ms, 25698ms total)
T2CF8 12473:012 JLINK_ReadReg(FPS8)  returns 0x00000000 (0000ms, 25698ms total)
T2CF8 12473:012 JLINK_ReadReg(FPS9)  returns 0x00000000 (0001ms, 25699ms total)
T2CF8 12473:013 JLINK_ReadReg(FPS10)  returns 0x00000000 (0000ms, 25699ms total)
T2CF8 12473:013 JLINK_ReadReg(FPS11)  returns 0x00000000 (0000ms, 25699ms total)
T2CF8 12473:013 JLINK_ReadReg(FPS12)  returns 0x00000000 (0000ms, 25699ms total)
T2CF8 12473:013 JLINK_ReadReg(FPS13)  returns 0x00000000 (0000ms, 25699ms total)
T2CF8 12473:013 JLINK_ReadReg(FPS14)  returns 0x00000000 (0000ms, 25699ms total)
T2CF8 12473:013 JLINK_ReadReg(FPS15)  returns 0x00000000 (0000ms, 25699ms total)
T2CF8 12473:013 JLINK_ReadReg(FPS16)  returns 0x00000000 (0000ms, 25699ms total)
T2CF8 12473:013 JLINK_ReadReg(FPS17)  returns 0x00000000 (0000ms, 25699ms total)
T2CF8 12473:013 JLINK_ReadReg(FPS18)  returns 0x00000000 (0000ms, 25699ms total)
T2CF8 12473:013 JLINK_ReadReg(FPS19)  returns 0x00000000 (0000ms, 25699ms total)
T2CF8 12473:013 JLINK_ReadReg(FPS20)  returns 0x00000000 (0000ms, 25699ms total)
T2CF8 12473:013 JLINK_ReadReg(FPS21)  returns 0x00000000 (0000ms, 25699ms total)
T2CF8 12473:013 JLINK_ReadReg(FPS22)  returns 0x00000000 (0000ms, 25699ms total)
T2CF8 12473:013 JLINK_ReadReg(FPS23)  returns 0x00000000 (0000ms, 25699ms total)
T2CF8 12473:013 JLINK_ReadReg(FPS24)  returns 0x00000000 (0000ms, 25699ms total)
T2CF8 12473:013 JLINK_ReadReg(FPS25)  returns 0x00000000 (0000ms, 25699ms total)
T2CF8 12473:013 JLINK_ReadReg(FPS26)  returns 0x00000000 (0000ms, 25699ms total)
T2CF8 12473:013 JLINK_ReadReg(FPS27)  returns 0x00000000 (0000ms, 25699ms total)
T2CF8 12473:013 JLINK_ReadReg(FPS28)  returns 0x00000000 (0000ms, 25699ms total)
T2CF8 12473:013 JLINK_ReadReg(FPS29)  returns 0x00000000 (0000ms, 25699ms total)
T2CF8 12473:013 JLINK_ReadReg(FPS30)  returns 0x00000000 (0000ms, 25699ms total)
T2CF8 12473:013 JLINK_ReadReg(FPS31)  returns 0x00000000 (0000ms, 25699ms total)
T2CF8 12473:013 JLINK_ReadMemEx(0x20000008, 0x0008 Bytes, ..., Flags = 0x02000000) -- CPU_ReadMem(64 bytes @ 0x20000000) -- Updating C cache (64 bytes @ 0x20000000) -- Read from C cache (8 bytes @ 0x20000008) - Data: 00 00 00 80 D8 5B 7E 3E  returns 0x08 (0002ms, 25701ms total)
T2CF8 12473:019 JLINK_ReadMemEx(0x20000000, 0x0004 Bytes, ..., Flags = 0x02000000) -- Read from C cache (4 bytes @ 0x20000000) - Data: 13 00 00 00  returns 0x04 (0000ms, 25701ms total)
T2CF8 12473:025 JLINK_ReadMemEx(0x20000004, 0x0004 Bytes, ..., Flags = 0x02000000) -- Read from C cache (4 bytes @ 0x20000004) - Data: 00 00 00 00  returns 0x04 (0000ms, 25701ms total)
T0820 12473:063 JLINK_ReadMemEx(0x08000228, 0x0002 Bytes, ..., Flags = 0x02000000) -- CPU_ReadMem(64 bytes @ 0x08000200) -- Updating C cache (64 bytes @ 0x08000200) -- Read from C cache (2 bytes @ 0x08000228) - Data: 09 48  returns 0x02 (0002ms, 25703ms total)
T0820 12473:066 JLINK_SetBPEx(Addr = 0x08000474, Type = 0xFFFFFFF2)  returns 0x00000001 (0000ms, 25703ms total)
T0820 12473:066 JLINK_ReadMemU32(0xE0001004, 0x0001 Items, ...) - Data: 00 00 00 00  returns 0x01 (0000ms, 25703ms total)
T0820 12473:066 JLINK_WriteU32(0xE0001004, 0x000003FF)  returns 0x00 (0000ms, 25703ms total)
T0820 12473:066 JLINK_WriteU32(0xE0001000, 0x0041061F)  returns 0x00 (0000ms, 25703ms total)
T0820 12473:066 JLINK_WriteU32(0xE0000E80, 0x0001000F)  returns 0x00 (0000ms, 25703ms total)
T0820 12473:066 JLINK_SWO_Control(JLINKARM_SWO_CMD_GET_NUM_BYTES, ...)  returns 0x03 (0000ms, 25703ms total)
T0820 12473:066 JLINK_SWO_Control(JLINKARM_SWO_CMD_FLUSH, ...)  returns 0x00 (0000ms, 25703ms total)
T0820 12473:066 JLINK_Go() -- CPU_WriteMem(4 bytes @ 0xE0002000) -- CPU_WriteMem(4 bytes @ 0xE0001000) -- CPU_ReadMem(4 bytes @ 0xE0001000) -- CPU_WriteMem(4 bytes @ 0xE0000E80) -- CPU_WriteMem(4 bytes @ 0xE0001008) -- CPU_WriteMem(4 bytes @ 0xE000100C) -- CPU_WriteMem(4 bytes @ 0xE0001010) -- CPU_WriteMem(4 bytes @ 0xE0001014) -- CPU_WriteMem(4 bytes @ 0xE0001018) -- CPU_WriteMem(4 bytes @ 0xE0002008) -- CPU_WriteMem(4 bytes @ 0xE000200C) -- CPU_WriteMem(4 bytes @ 0xE0002010)
 -- CPU_WriteMem(4 bytes @ 0xE0002014) -- CPU_WriteMem(4 bytes @ 0xE0002018) -- CPU_WriteMem(4 bytes @ 0xE000201C) -- CPU_WriteMem(4 bytes @ 0xE0001004) (0019ms, 25722ms total)
T0820 12473:088 JLINK_WriteU32(0xE0001000, 0x0001061F) -- CPU is running -- CPU_WriteMem(4 bytes @ 0xE0001000)  returns 0x00 (0001ms, 25723ms total)
T0820 12473:189 JLINK_SWO_Read(..., Offset = 0x00, NumBytes = 0x400000) - Data: 00 F0 02 A1 00  NumBytesRead = 0x05 (0000ms, 25723ms total)
T0820 12473:190 JLINK_SWO_Control(JLINKARM_SWO_CMD_FLUSH, ...)  returns 0x00 (0000ms, 25723ms total)
T0820 12473:190 JLINK_IsHalted()  returns TRUE (0004ms, 25727ms total)
T0820 12473:194 JLINK_Halt()  returns 0x00 (0000ms, 25723ms total)
T0820 12473:194 JLINK_IsHalted()  returns TRUE (0000ms, 25723ms total)
T0820 12473:194 JLINK_IsHalted()  returns TRUE (0000ms, 25723ms total)
T0820 12473:194 JLINK_IsHalted()  returns TRUE (0000ms, 25723ms total)
T0820 12473:200 JLINK_ReadReg(R15 (PC))  returns 0x08000474 (0000ms, 25723ms total)
T0820 12473:200 JLINK_ReadReg(XPSR)  returns 0x21000000 (0000ms, 25723ms total)
T0820 12473:200 JLINK_SWO_Read(..., Offset = 0x00, NumBytes = 0x400000) - Data:  NumBytesRead = 0x00 (0000ms, 25723ms total)
T0820 12473:202 JLINK_SWO_Control(JLINKARM_SWO_CMD_FLUSH, ...)  returns 0x00 (0000ms, 25723ms total)
T0820 12473:202 JLINK_ClrBPEx(BPHandle = 0x00000001)  returns 0x00 (0000ms, 25723ms total)
T0820 12473:202 JLINK_ReadMemU32(0xE000ED30, 0x0001 Items, ...) -- CPU_ReadMem(4 bytes @ 0xE000ED30) - Data: 03 00 00 00  returns 0x01 (0001ms, 25724ms total)
T0820 12473:203 JLINK_ReadMemU32(0xE0001028, 0x0001 Items, ...) -- CPU_ReadMem(4 bytes @ 0xE0001028) - Data: 00 00 00 00  returns 0x01 (0001ms, 25725ms total)
T0820 12473:204 JLINK_ReadMemU32(0xE0001038, 0x0001 Items, ...) -- CPU_ReadMem(4 bytes @ 0xE0001038) - Data: 00 02 00 00  returns 0x01 (0001ms, 25726ms total)
T0820 12473:205 JLINK_ReadMemU32(0xE0001048, 0x0001 Items, ...) -- CPU_ReadMem(4 bytes @ 0xE0001048) - Data: 00 00 00 00  returns 0x01 (0001ms, 25727ms total)
T0820 12473:207 JLINK_ReadMemU32(0xE0001058, 0x0001 Items, ...) -- CPU_ReadMem(4 bytes @ 0xE0001058) - Data: 00 00 00 00  returns 0x01 (0001ms, 25728ms total)
T0820 12473:208 JLINK_ReadReg(R0)  returns 0x20000070 (0000ms, 25728ms total)
T0820 12473:208 JLINK_ReadReg(R1)  returns 0x20000270 (0000ms, 25728ms total)
T0820 12473:208 JLINK_ReadReg(R2)  returns 0x20000270 (0000ms, 25728ms total)
T0820 12473:208 JLINK_ReadReg(R3)  returns 0x20000270 (0000ms, 25728ms total)
T0820 12473:208 JLINK_ReadReg(R4)  returns 0x00000000 (0000ms, 25728ms total)
T0820 12473:208 JLINK_ReadReg(R5)  returns 0x20000010 (0000ms, 25728ms total)
T0820 12473:208 JLINK_ReadReg(R6)  returns 0x00000000 (0000ms, 25728ms total)
T0820 12473:208 JLINK_ReadReg(R7)  returns 0x00000000 (0000ms, 25728ms total)
T0820 12473:208 JLINK_ReadReg(R8)  returns 0x00000000 (0000ms, 25728ms total)
T0820 12473:208 JLINK_ReadReg(R9)  returns 0x00000000 (0000ms, 25728ms total)
T0820 12473:208 JLINK_ReadReg(R10)  returns 0x08000608 (0000ms, 25728ms total)
T0820 12473:208 JLINK_ReadReg(R11)  returns 0x00000000 (0000ms, 25728ms total)
T0820 12473:208 JLINK_ReadReg(R12)  returns 0x20000050 (0000ms, 25728ms total)
T0820 12473:208 JLINK_ReadReg(R13 (SP))  returns 0x20000670 (0000ms, 25728ms total)
T0820 12473:208 JLINK_ReadReg(R14)  returns 0x08000217 (0000ms, 25728ms total)
T0820 12473:208 JLINK_ReadReg(R15 (PC))  returns 0x08000474 (0000ms, 25728ms total)
T0820 12473:209 JLINK_ReadReg(XPSR)  returns 0x21000000 (0000ms, 25729ms total)
T0820 12473:209 JLINK_ReadReg(MSP)  returns 0x20000670 (0000ms, 25729ms total)
T0820 12473:209 JLINK_ReadReg(PSP)  returns 0x00000000 (0000ms, 25729ms total)
T0820 12473:209 JLINK_ReadReg(CFBP)  returns 0x04000000 (0000ms, 25729ms total)
T0820 12473:209 JLINK_ReadReg(FPSCR)  returns 0x03000000 (0005ms, 25734ms total)
T0820 12473:215 JLINK_ReadReg(FPS0)  returns 0x00000000 (0000ms, 25734ms total)
T0820 12473:215 JLINK_ReadReg(FPS1)  returns 0x00000000 (0000ms, 25734ms total)
T0820 12473:215 JLINK_ReadReg(FPS2)  returns 0x00000000 (0000ms, 25734ms total)
T0820 12473:215 JLINK_ReadReg(FPS3)  returns 0x00000000 (0000ms, 25734ms total)
T0820 12473:215 JLINK_ReadReg(FPS4)  returns 0x00000000 (0000ms, 25734ms total)
T0820 12473:215 JLINK_ReadReg(FPS5)  returns 0x00000000 (0000ms, 25734ms total)
T0820 12473:215 JLINK_ReadReg(FPS6)  returns 0x00000000 (0000ms, 25734ms total)
T0820 12473:215 JLINK_ReadReg(FPS7)  returns 0x00000000 (0000ms, 25734ms total)
T0820 12473:215 JLINK_ReadReg(FPS8)  returns 0x00000000 (0000ms, 25734ms total)
T0820 12473:215 JLINK_ReadReg(FPS9)  returns 0x00000000 (0000ms, 25734ms total)
T0820 12473:215 JLINK_ReadReg(FPS10)  returns 0x00000000 (0000ms, 25734ms total)
T0820 12473:215 JLINK_ReadReg(FPS11)  returns 0x00000000 (0000ms, 25734ms total)
T0820 12473:215 JLINK_ReadReg(FPS12)  returns 0x00000000 (0000ms, 25734ms total)
T0820 12473:215 JLINK_ReadReg(FPS13)  returns 0x00000000 (0000ms, 25734ms total)
T0820 12473:215 JLINK_ReadReg(FPS14)  returns 0x00000000 (0000ms, 25734ms total)
T0820 12473:215 JLINK_ReadReg(FPS15)  returns 0x00000000 (0000ms, 25734ms total)
T0820 12473:215 JLINK_ReadReg(FPS16)  returns 0x00000000 (0000ms, 25734ms total)
T0820 12473:215 JLINK_ReadReg(FPS17)  returns 0x00000000 (0000ms, 25734ms total)
T0820 12473:215 JLINK_ReadReg(FPS18)  returns 0x00000000 (0000ms, 25734ms total)
T0820 12473:215 JLINK_ReadReg(FPS19)  returns 0x00000000 (0000ms, 25734ms total)
T0820 12473:215 JLINK_ReadReg(FPS20)  returns 0x00000000 (0000ms, 25734ms total)
T0820 12473:215 JLINK_ReadReg(FPS21)  returns 0x00000000 (0000ms, 25734ms total)
T0820 12473:215 JLINK_ReadReg(FPS22)  returns 0x00000000 (0000ms, 25734ms total)
T0820 12473:215 JLINK_ReadReg(FPS23)  returns 0x00000000 (0000ms, 25734ms total)
T0820 12473:215 JLINK_ReadReg(FPS24)  returns 0x00000000 (0001ms, 25735ms total)
T0820 12473:216 JLINK_ReadReg(FPS25)  returns 0x00000000 (0000ms, 25735ms total)
T0820 12473:216 JLINK_ReadReg(FPS26)  returns 0x00000000 (0000ms, 25735ms total)
T0820 12473:216 JLINK_ReadReg(FPS27)  returns 0x00000000 (0000ms, 25735ms total)
T0820 12473:216 JLINK_ReadReg(FPS28)  returns 0x00000000 (0000ms, 25735ms total)
T0820 12473:216 JLINK_ReadReg(FPS29)  returns 0x00000000 (0000ms, 25735ms total)
T0820 12473:216 JLINK_ReadReg(FPS30)  returns 0x00000000 (0000ms, 25735ms total)
T0820 12473:216 JLINK_ReadReg(FPS31)  returns 0x00000000 (0000ms, 25735ms total)
T2CF8 12473:217 JLINK_ReadMemEx(0x00000000, 0x0002 Bytes, ..., Flags = 0x02000000) -- CPU_ReadMem(4 bytes @ 0x00000004) -- CPU_ReadMem(64 bytes @ 0x08000000) -- Updating C cache (64 bytes @ 0x08000000) -- Read from C cache (2 bytes @ 0x08000000) - Data: 70 06  returns 0x02 (0011ms, 25746ms total)
T2CF8 12473:242 JLINK_ReadMemU32(0xE0001004, 0x0001 Items, ...) -- CPU_ReadMem(4 bytes @ 0xE0001004) - Data: 2B 08 00 00  returns 0x01 (0002ms, 25748ms total)
T2CF8 12473:246 JLINK_ReadMemEx(0x20000008, 0x0008 Bytes, ..., Flags = 0x02000000) -- CPU_ReadMem(64 bytes @ 0x20000000) -- Updating C cache (64 bytes @ 0x20000000) -- Read from C cache (8 bytes @ 0x20000008) - Data: 00 00 00 00 00 00 00 00  returns 0x08 (0002ms, 25750ms total)
T2CF8 12473:248 JLINK_ReadMemEx(0x20000000, 0x0004 Bytes, ..., Flags = 0x02000000) -- Read from C cache (4 bytes @ 0x20000000) - Data: 00 00 00 00  returns 0x04 (0000ms, 25750ms total)
T2CF8 12473:249 JLINK_ReadMemEx(0x20000004, 0x0004 Bytes, ..., Flags = 0x02000000) -- Read from C cache (4 bytes @ 0x20000004) - Data: 00 00 00 00  returns 0x04 (0000ms, 25750ms total)
T2CF8 12473:249 JLINK_ReadMemEx(0x40023800, 0x0018 Bytes, ..., Flags = 0x02000004) -- CPU_ReadMem(24 bytes @ 0x40023800) - Data: 83 80 00 00 10 30 00 24 00 00 00 00 00 00 00 00 ...  returns 0x18 (0001ms, 25751ms total)
T2CF8 12473:251 JLINK_ReadMemEx(0x40023818, 0x0004 Bytes, ..., Flags = 0x02000004) -- CPU_ReadMem(4 bytes @ 0x40023818) - Data: 00 00 00 00  returns 0x04 (0001ms, 25752ms total)
T2CF8 12473:252 JLINK_ReadMemEx(0x40023820, 0x0004 Bytes, ..., Flags = 0x02000004) -- CPU_ReadMem(4 bytes @ 0x40023820) - Data: 00 00 00 00  returns 0x04 (0002ms, 25754ms total)
T2CF8 12473:254 JLINK_ReadMemEx(0x40023824, 0x0004 Bytes, ..., Flags = 0x02000004) -- CPU_ReadMem(4 bytes @ 0x40023824) - Data: 00 00 00 00  returns 0x04 (0003ms, 25757ms total)
T2CF8 12473:258 JLINK_ReadMemEx(0x40023830, 0x0008 Bytes, ..., Flags = 0x02000004) -- CPU_ReadMem(8 bytes @ 0x40023830) - Data: 00 00 10 00 00 00 00 00  returns 0x08 (0001ms, 25758ms total)
T2CF8 12473:259 JLINK_ReadMemEx(0x40023838, 0x0004 Bytes, ..., Flags = 0x02000004) -- CPU_ReadMem(4 bytes @ 0x40023838) - Data: 00 00 00 00  returns 0x04 (0001ms, 25759ms total)
T2CF8 12473:260 JLINK_ReadMemEx(0x40023840, 0x0004 Bytes, ..., Flags = 0x02000004) -- CPU_ReadMem(4 bytes @ 0x40023840) - Data: 00 00 00 00  returns 0x04 (0001ms, 25760ms total)
T2CF8 12473:261 JLINK_ReadMemEx(0x40023844, 0x0004 Bytes, ..., Flags = 0x02000004) -- CPU_ReadMem(4 bytes @ 0x40023844) - Data: 00 00 00 00  returns 0x04 (0001ms, 25761ms total)
T2CF8 12473:262 JLINK_ReadMemEx(0x40023850, 0x0008 Bytes, ..., Flags = 0x02000004) -- CPU_ReadMem(8 bytes @ 0x40023850) - Data: FF 91 67 7E F1 00 00 00  returns 0x08 (0001ms, 25762ms total)
T2CF8 12473:264 JLINK_ReadMemEx(0x40023858, 0x0004 Bytes, ..., Flags = 0x02000004) -- CPU_ReadMem(4 bytes @ 0x40023858) - Data: 01 00 00 00  returns 0x04 (0001ms, 25763ms total)
T2CF8 12473:265 JLINK_ReadMemEx(0x40023860, 0x0004 Bytes, ..., Flags = 0x02000004) -- CPU_ReadMem(4 bytes @ 0x40023860) - Data: FF C9 FE 36  returns 0x04 (0001ms, 25764ms total)
T2CF8 12473:266 JLINK_ReadMemEx(0x40023864, 0x0004 Bytes, ..., Flags = 0x02000004) -- CPU_ReadMem(4 bytes @ 0x40023864) - Data: 33 5F 07 00  returns 0x04 (0001ms, 25765ms total)
T2CF8 12473:267 JLINK_ReadMemEx(0x40023870, 0x0004 Bytes, ..., Flags = 0x02000004) -- CPU_ReadMem(4 bytes @ 0x40023870) - Data: 00 00 00 00  returns 0x04 (0001ms, 25766ms total)
T2CF8 12473:268 JLINK_ReadMemEx(0x40023874, 0x0004 Bytes, ..., Flags = 0x02000004) -- CPU_ReadMem(4 bytes @ 0x40023874) - Data: 00 00 00 1E  returns 0x04 (0001ms, 25767ms total)
T2CF8 12473:271 JLINK_ReadMemEx(0x40023880, 0x0004 Bytes, ..., Flags = 0x02000004) -- CPU_ReadMem(4 bytes @ 0x40023880) - Data: 00 00 00 00  returns 0x04 (0002ms, 25769ms total)
T2CF8 12473:273 JLINK_ReadMemEx(0x40023884, 0x0004 Bytes, ..., Flags = 0x02000004) -- CPU_ReadMem(4 bytes @ 0x40023884) - Data: 00 30 00 20  returns 0x04 (0001ms, 25770ms total)
T0820 12485:284 JLINK_ReadMemEx(0x08000474, 0x0002 Bytes, ..., Flags = 0x02000000) -- CPU_ReadMem(64 bytes @ 0x08000440) -- Updating C cache (64 bytes @ 0x08000440) -- Read from C cache (2 bytes @ 0x08000474) - Data: FF F7  returns 0x02 (0002ms, 25772ms total)
T0820 12485:286 JLINK_ReadMemU32(0xE0001004, 0x0001 Items, ...) - Data: 2B 08 00 00  returns 0x01 (0000ms, 25772ms total)
T0820 12485:286 JLINK_WriteU32(0xE0001004, 0x00000BFF)  returns 0x00 (0000ms, 25772ms total)
T0820 12485:286 JLINK_WriteU32(0xE0001000, 0x0041061F)  returns 0x00 (0000ms, 25772ms total)
T0820 12485:286 JLINK_WriteU32(0xE0000E80, 0x0001000F)  returns 0x00 (0000ms, 25772ms total)
T0820 12485:286 JLINK_SWO_Control(JLINKARM_SWO_CMD_GET_NUM_BYTES, ...)  returns 0x00 (0000ms, 25772ms total)
T0820 12485:286 JLINK_Go() -- CPU_WriteMem(4 bytes @ 0xE0001000) -- CPU_ReadMem(4 bytes @ 0xE0001000) -- CPU_WriteMem(4 bytes @ 0xE0000E80) -- CPU_WriteMem(4 bytes @ 0xE0002008) -- CPU_WriteMem(4 bytes @ 0xE0001004) (0007ms, 25779ms total)
T0820 12485:295 JLINK_WriteU32(0xE0001000, 0x0001061F) -- CPU is running -- CPU_WriteMem(4 bytes @ 0xE0001000)  returns 0x00 (0001ms, 25780ms total)
T0820 12485:403 JLINK_SWO_Read(..., Offset = 0x00, NumBytes = 0x400000) - Data: 00 00 02 61 C9 FF FF FE FE FE FE FE FF  NumBytesRead = 0x0D (0000ms, 25780ms total)
T0820 12485:405 JLINK_SWO_Control(JLINKARM_SWO_CMD_FLUSH, ...)  returns 0x00 (0000ms, 25780ms total)
T0820 12485:405 JLINK_IsHalted()  returns FALSE (0001ms, 25781ms total)
T0820 12485:506 JLINK_SWO_Read(..., Offset = 0x00, NumBytes = 0x400000) - Data: FF FF FF FE FE FE FE FE  NumBytesRead = 0x08 (0000ms, 25780ms total)
T0820 12485:508 JLINK_SWO_Control(JLINKARM_SWO_CMD_FLUSH, ...)  returns 0x00 (0000ms, 25780ms total)
T0820 12485:508 JLINK_IsHalted()  returns FALSE (0001ms, 25781ms total)
T0820 12485:611 JLINK_SWO_Read(..., Offset = 0x00, NumBytes = 0x400000) - Data: FF FF FF FF FE FE FE FE  NumBytesRead = 0x08 (0000ms, 25780ms total)
T0820 12485:613 JLINK_SWO_Control(JLINKARM_SWO_CMD_FLUSH, ...)  returns 0x00 (0000ms, 25780ms total)
T0820 12485:613 JLINK_IsHalted()  returns FALSE (0001ms, 25781ms total)
T0820 12485:714 JLINK_SWO_Read(..., Offset = 0x00, NumBytes = 0x400000) - Data: FE FF FF FF FF FE FE FE FE FE FF  NumBytesRead = 0x0B (0000ms, 25780ms total)
T0820 12485:716 JLINK_SWO_Control(JLINKARM_SWO_CMD_FLUSH, ...)  returns 0x00 (0000ms, 25780ms total)
T0820 12485:716 JLINK_IsHalted()  returns FALSE (0001ms, 25781ms total)
T0820 12485:834 JLINK_SWO_Read(..., Offset = 0x00, NumBytes = 0x400000) - Data: FF FF FF FE FE FE FE FE  NumBytesRead = 0x08 (0000ms, 25781ms total)
T0820 12485:837 JLINK_SWO_Control(JLINKARM_SWO_CMD_FLUSH, ...)  returns 0x00 (0000ms, 25781ms total)
T0820 12485:837 JLINK_ReadMemU32(0xE0001004, 0x0001 Items, ...) -- CPU_ReadMem(4 bytes @ 0xE0001004) - Data: 38 00 00 00  returns 0x01 (0001ms, 25782ms total)
T2CF8 12485:839 JLINK_ReadMemEx(0x20000008, 0x0008 Bytes, ..., Flags = 0x02000000) -- CPU_ReadMem(8 bytes @ 0x20000008) - Data: 00 00 00 80 D8 5B 7E 3E  returns 0x08 (0001ms, 25783ms total)
T2CF8 12485:840 JLINK_ReadMemEx(0x20000000, 0x0004 Bytes, ..., Flags = 0x02000000) -- CPU_ReadMem(4 bytes @ 0x20000000) - Data: 13 00 00 00  returns 0x04 (0002ms, 25785ms total)
T2CF8 12485:844 JLINK_ReadMemEx(0x20000004, 0x0004 Bytes, ..., Flags = 0x02000000) -- CPU_ReadMem(4 bytes @ 0x20000004) - Data: 00 00 00 00  returns 0x04 (0001ms, 25786ms total)
T2CF8 12485:847 JLINK_ReadMemEx(0x40023800, 0x0018 Bytes, ..., Flags = 0x02000004) -- CPU_ReadMem(24 bytes @ 0x40023800) - Data: 83 80 03 03 04 2A 40 27 0A 94 00 00 00 00 00 00 ...  returns 0x18 (0001ms, 25787ms total)
T2CF8 12485:848 JLINK_ReadMemEx(0x40023818, 0x0004 Bytes, ..., Flags = 0x02000004) -- CPU_ReadMem(4 bytes @ 0x40023818) - Data: 00 00 00 00  returns 0x04 (0001ms, 25788ms total)
T2CF8 12485:850 JLINK_ReadMemEx(0x40023820, 0x0004 Bytes, ..., Flags = 0x02000004) -- CPU_ReadMem(4 bytes @ 0x40023820) - Data: 00 00 00 00  returns 0x04 (0002ms, 25790ms total)
T2CF8 12485:852 JLINK_ReadMemEx(0x40023824, 0x0004 Bytes, ..., Flags = 0x02000004) -- CPU_ReadMem(4 bytes @ 0x40023824) - Data: 00 00 00 00  returns 0x04 (0008ms, 25798ms total)
T2CF8 12485:862 JLINK_ReadMemEx(0x40023830, 0x0008 Bytes, ..., Flags = 0x02000004) -- CPU_ReadMem(8 bytes @ 0x40023830) - Data: 00 00 10 00 00 00 00 00  returns 0x08 (0001ms, 25799ms total)
T2CF8 12485:863 JLINK_ReadMemEx(0x40023838, 0x0004 Bytes, ..., Flags = 0x02000004) -- CPU_ReadMem(4 bytes @ 0x40023838) - Data: 00 00 00 00  returns 0x04 (0001ms, 25800ms total)
T2CF8 12485:864 JLINK_ReadMemEx(0x40023840, 0x0004 Bytes, ..., Flags = 0x02000004) -- CPU_ReadMem(4 bytes @ 0x40023840) - Data: 00 00 00 00  returns 0x04 (0002ms, 25802ms total)
T2CF8 12485:866 JLINK_ReadMemEx(0x40023844, 0x0004 Bytes, ..., Flags = 0x02000004) -- CPU_ReadMem(4 bytes @ 0x40023844) - Data: 00 00 00 00  returns 0x04 (0001ms, 25803ms total)
T2CF8 12485:867 JLINK_ReadMemEx(0x40023850, 0x0008 Bytes, ..., Flags = 0x02000004) -- CPU_ReadMem(8 bytes @ 0x40023850) - Data: FF 91 67 7E F1 00 00 00  returns 0x08 (0001ms, 25804ms total)
T2CF8 12485:870 JLINK_ReadMemEx(0x40023858, 0x0004 Bytes, ..., Flags = 0x02000004) -- CPU_ReadMem(4 bytes @ 0x40023858) - Data: 01 00 00 00  returns 0x04 (0001ms, 25805ms total)
T2CF8 12485:871 JLINK_ReadMemEx(0x40023860, 0x0004 Bytes, ..., Flags = 0x02000004) -- CPU_ReadMem(4 bytes @ 0x40023860) - Data: FF C9 FE 36  returns 0x04 (0001ms, 25806ms total)
T2CF8 12485:872 JLINK_ReadMemEx(0x40023864, 0x0004 Bytes, ..., Flags = 0x02000004) -- CPU_ReadMem(4 bytes @ 0x40023864) - Data: 33 5F 07 00  returns 0x04 (0001ms, 25807ms total)
T2CF8 12485:873 JLINK_ReadMemEx(0x40023870, 0x0004 Bytes, ..., Flags = 0x02000004) -- CPU_ReadMem(4 bytes @ 0x40023870) - Data: 00 00 00 00  returns 0x04 (0005ms, 25812ms total)
T2CF8 12485:881 JLINK_ReadMemEx(0x40023874, 0x0004 Bytes, ..., Flags = 0x02000004) -- CPU_ReadMem(4 bytes @ 0x40023874) - Data: 00 00 00 1E  returns 0x04 (0001ms, 25813ms total)
T2CF8 12485:882 JLINK_ReadMemEx(0x40023880, 0x0004 Bytes, ..., Flags = 0x02000004) -- CPU_ReadMem(4 bytes @ 0x40023880) - Data: 00 00 00 00  returns 0x04 (0001ms, 25814ms total)
T2CF8 12485:883 JLINK_ReadMemEx(0x40023884, 0x0004 Bytes, ..., Flags = 0x02000004) -- CPU_ReadMem(4 bytes @ 0x40023884) - Data: 00 30 00 20  returns 0x04 (0002ms, 25816ms total)
T0820 12485:904 JLINK_IsHalted()  returns FALSE (0001ms, 25817ms total)
T0820 12486:005 JLINK_SWO_Read(..., Offset = 0x00, NumBytes = 0x400000) - Data: FF FF FF FF FE FE FE FE FE FF FF FF FF FF FE FE  NumBytesRead = 0x10 (0000ms, 25816ms total)
T0820 12486:007 JLINK_SWO_Control(JLINKARM_SWO_CMD_FLUSH, ...)  returns 0x00 (0000ms, 25816ms total)
T0820 12486:007 JLINK_IsHalted()  returns FALSE (0001ms, 25817ms total)
T0820 12486:108 JLINK_SWO_Read(..., Offset = 0x00, NumBytes = 0x400000) - Data: FE FE FF FF FF FF FF FE  NumBytesRead = 0x08 (0000ms, 25816ms total)
T0820 12486:110 JLINK_SWO_Control(JLINKARM_SWO_CMD_FLUSH, ...)  returns 0x00 (0000ms, 25816ms total)
T0820 12486:110 JLINK_IsHalted()  returns FALSE (0001ms, 25817ms total)
T0820 12486:212 JLINK_SWO_Read(..., Offset = 0x00, NumBytes = 0x400000) - Data: FE FE FE FF FF FF FF FF  NumBytesRead = 0x08 (0000ms, 25816ms total)
T0820 12486:214 JLINK_SWO_Control(JLINKARM_SWO_CMD_FLUSH, ...)  returns 0x00 (0000ms, 25816ms total)
T0820 12486:214 JLINK_IsHalted()  returns FALSE (0001ms, 25817ms total)
T0820 12486:315 JLINK_SWO_Read(..., Offset = 0x00, NumBytes = 0x400000) - Data: FE FE FE FE FF FF  NumBytesRead = 0x06 (0000ms, 25816ms total)
T0820 12486:317 JLINK_SWO_Control(JLINKARM_SWO_CMD_FLUSH, ...)  returns 0x00 (0000ms, 25816ms total)
T0820 12486:317 JLINK_IsHalted()  returns FALSE (0001ms, 25817ms total)
T0820 12486:418 JLINK_SWO_Read(..., Offset = 0x00, NumBytes = 0x400000) - Data: FF FF FF FE FE FE FE FE FF FF FF FF FE  NumBytesRead = 0x0D (0000ms, 25816ms total)
T0820 12486:420 JLINK_SWO_Control(JLINKARM_SWO_CMD_FLUSH, ...)  returns 0x00 (0000ms, 25816ms total)
T0820 12486:420 JLINK_ReadMemU32(0xE0001004, 0x0001 Items, ...) - Data: 38 00 00 00  returns 0x01 (0000ms, 25816ms total)
T2CF8 12486:425 JLINK_ReadMemEx(0x20000008, 0x0008 Bytes, ..., Flags = 0x02000000) -- CPU_ReadMem(8 bytes @ 0x20000008) - Data: 00 00 00 80 D8 5B 7E 3E  returns 0x08 (0001ms, 25817ms total)
T2CF8 12486:426 JLINK_ReadMemEx(0x20000000, 0x0004 Bytes, ..., Flags = 0x02000000) -- CPU_ReadMem(4 bytes @ 0x20000000) - Data: 13 00 00 00  returns 0x04 (0002ms, 25819ms total)
T2CF8 12486:428 JLINK_ReadMemEx(0x20000004, 0x0004 Bytes, ..., Flags = 0x02000000) -- CPU_ReadMem(4 bytes @ 0x20000004) - Data: 00 00 00 00  returns 0x04 (0002ms, 25821ms total)
T2CF8 12486:433 JLINK_ReadMemEx(0x40023800, 0x0018 Bytes, ..., Flags = 0x02000004) -- CPU_ReadMem(24 bytes @ 0x40023800) - Data: 83 80 03 03 04 2A 40 27 0A 94 00 00 00 00 00 00 ...  returns 0x18 (0001ms, 25822ms total)
T2CF8 12486:434 JLINK_ReadMemEx(0x40023818, 0x0004 Bytes, ..., Flags = 0x02000004) -- CPU_ReadMem(4 bytes @ 0x40023818) - Data: 00 00 00 00  returns 0x04 (0001ms, 25823ms total)
T2CF8 12486:435 JLINK_ReadMemEx(0x40023820, 0x0004 Bytes, ..., Flags = 0x02000004) -- CPU_ReadMem(4 bytes @ 0x40023820) - Data: 00 00 00 00  returns 0x04 (0001ms, 25824ms total)
T2CF8 12486:436 JLINK_ReadMemEx(0x40023824, 0x0004 Bytes, ..., Flags = 0x02000004) -- CPU_ReadMem(4 bytes @ 0x40023824) - Data: 00 00 00 00  returns 0x04 (0001ms, 25825ms total)
T2CF8 12486:437 JLINK_ReadMemEx(0x40023830, 0x0008 Bytes, ..., Flags = 0x02000004) -- CPU_ReadMem(8 bytes @ 0x40023830) - Data: 00 00 10 00 00 00 00 00  returns 0x08 (0001ms, 25826ms total)
T2CF8 12486:440 JLINK_ReadMemEx(0x40023838, 0x0004 Bytes, ..., Flags = 0x02000004) -- CPU_ReadMem(4 bytes @ 0x40023838) - Data: 00 00 00 00  returns 0x04 (0001ms, 25827ms total)
T2CF8 12486:441 JLINK_ReadMemEx(0x40023840, 0x0004 Bytes, ..., Flags = 0x02000004) -- CPU_ReadMem(4 bytes @ 0x40023840) - Data: 00 00 00 00  returns 0x04 (0001ms, 25828ms total)
T2CF8 12486:442 JLINK_ReadMemEx(0x40023844, 0x0004 Bytes, ..., Flags = 0x02000004) -- CPU_ReadMem(4 bytes @ 0x40023844) - Data: 00 00 00 00  returns 0x04 (0001ms, 25829ms total)
T2CF8 12486:443 JLINK_ReadMemEx(0x40023850, 0x0008 Bytes, ..., Flags = 0x02000004) -- CPU_ReadMem(8 bytes @ 0x40023850) - Data: FF 91 67 7E F1 00 00 00  returns 0x08 (0001ms, 25830ms total)
T2CF8 12486:444 JLINK_ReadMemEx(0x40023858, 0x0004 Bytes, ..., Flags = 0x02000004) -- CPU_ReadMem(4 bytes @ 0x40023858) - Data: 01 00 00 00  returns 0x04 (0002ms, 25832ms total)
T2CF8 12486:447 JLINK_ReadMemEx(0x40023860, 0x0004 Bytes, ..., Flags = 0x02000004) -- CPU_ReadMem(4 bytes @ 0x40023860) - Data: FF C9 FE 36  returns 0x04 (0001ms, 25833ms total)
T2CF8 12486:448 JLINK_ReadMemEx(0x40023864, 0x0004 Bytes, ..., Flags = 0x02000004) -- CPU_ReadMem(4 bytes @ 0x40023864) - Data: 33 5F 07 00  returns 0x04 (0001ms, 25834ms total)
T2CF8 12486:449 JLINK_ReadMemEx(0x40023870, 0x0004 Bytes, ..., Flags = 0x02000004) -- CPU_ReadMem(4 bytes @ 0x40023870) - Data: 00 00 00 00  returns 0x04 (0001ms, 25835ms total)
T2CF8 12486:450 JLINK_ReadMemEx(0x40023874, 0x0004 Bytes, ..., Flags = 0x02000004) -- CPU_ReadMem(4 bytes @ 0x40023874) - Data: 00 00 00 1E  returns 0x04 (0001ms, 25836ms total)
T2CF8 12486:451 JLINK_ReadMemEx(0x40023880, 0x0004 Bytes, ..., Flags = 0x02000004) -- CPU_ReadMem(4 bytes @ 0x40023880) - Data: 00 00 00 00  returns 0x04 (0001ms, 25837ms total)
T2CF8 12486:452 JLINK_ReadMemEx(0x40023884, 0x0004 Bytes, ..., Flags = 0x02000004) -- CPU_ReadMem(4 bytes @ 0x40023884) - Data: 00 30 00 20  returns 0x04 (0001ms, 25838ms total)
T0820 12486:468 JLINK_IsHalted()  returns FALSE (0001ms, 25839ms total)
T0820 12486:569 JLINK_SWO_Read(..., Offset = 0x00, NumBytes = 0x400000) - Data: FE FE FE FE FF FF FF FF FE FE FE  NumBytesRead = 0x0B (0000ms, 25839ms total)
T0820 12486:572 JLINK_SWO_Control(JLINKARM_SWO_CMD_FLUSH, ...)  returns 0x00 (0000ms, 25839ms total)
T0820 12486:572 JLINK_IsHalted()  returns FALSE (0001ms, 25840ms total)
T0820 12486:674 JLINK_SWO_Read(..., Offset = 0x00, NumBytes = 0x400000) - Data: FE FE FF FF FF FF FE FE FE FE FE  NumBytesRead = 0x0B (0000ms, 25839ms total)
T0820 12486:677 JLINK_SWO_Control(JLINKARM_SWO_CMD_FLUSH, ...)  returns 0x00 (0000ms, 25839ms total)
T0820 12486:677 JLINK_IsHalted()  returns FALSE (0001ms, 25840ms total)
T0820 12486:778 JLINK_SWO_Read(..., Offset = 0x00, NumBytes = 0x400000) - Data: FF FF FF FF FE FE FE FE  NumBytesRead = 0x08 (0000ms, 25839ms total)
T0820 12486:780 JLINK_SWO_Control(JLINKARM_SWO_CMD_FLUSH, ...)  returns 0x00 (0000ms, 25839ms total)
T0820 12486:780 JLINK_IsHalted()  returns FALSE (0001ms, 25840ms total)
T0820 12486:882 JLINK_SWO_Read(..., Offset = 0x00, NumBytes = 0x400000) - Data: FF FF FF FF FF FE FE FE  NumBytesRead = 0x08 (0000ms, 25839ms total)
T0820 12486:884 JLINK_SWO_Control(JLINKARM_SWO_CMD_FLUSH, ...)  returns 0x00 (0000ms, 25839ms total)
T0820 12486:884 JLINK_IsHalted()  returns FALSE (0001ms, 25840ms total)
T0820 12486:985 JLINK_SWO_Read(..., Offset = 0x00, NumBytes = 0x400000) - Data: FE FF FF FF FF FF FE FE  NumBytesRead = 0x08 (0001ms, 25840ms total)
T0820 12487:001 JLINK_SWO_Control(JLINKARM_SWO_CMD_FLUSH, ...)  returns 0x00 (0000ms, 25840ms total)
T0820 12487:001 JLINK_ReadMemU32(0xE0001004, 0x0001 Items, ...) - Data: 38 00 00 00  returns 0x01 (0000ms, 25840ms total)
T2CF8 12487:008 JLINK_ReadMemEx(0x20000008, 0x0008 Bytes, ..., Flags = 0x02000000) -- CPU_ReadMem(8 bytes @ 0x20000008) - Data: 00 00 00 80 D8 5B 7E 3E  returns 0x08 (0001ms, 25841ms total)
T2CF8 12487:009 JLINK_ReadMemEx(0x20000000, 0x0004 Bytes, ..., Flags = 0x02000000) -- CPU_ReadMem(4 bytes @ 0x20000000) - Data: 13 00 00 00  returns 0x04 (0001ms, 25842ms total)
T2CF8 12487:010 JLINK_ReadMemEx(0x20000004, 0x0004 Bytes, ..., Flags = 0x02000000) -- CPU_ReadMem(4 bytes @ 0x20000004) - Data: 00 00 00 00  returns 0x04 (0001ms, 25843ms total)
T2CF8 12487:017 JLINK_ReadMemEx(0x40023800, 0x0018 Bytes, ..., Flags = 0x02000004) -- CPU_ReadMem(24 bytes @ 0x40023800) - Data: 83 80 03 03 04 2A 40 27 0A 94 00 00 00 00 00 00 ...  returns 0x18 (0001ms, 25844ms total)
T2CF8 12487:018 JLINK_ReadMemEx(0x40023818, 0x0004 Bytes, ..., Flags = 0x02000004) -- CPU_ReadMem(4 bytes @ 0x40023818) - Data: 00 00 00 00  returns 0x04 (0001ms, 25845ms total)
T2CF8 12487:020 JLINK_ReadMemEx(0x40023820, 0x0004 Bytes, ..., Flags = 0x02000004) -- CPU_ReadMem(4 bytes @ 0x40023820) - Data: 00 00 00 00  returns 0x04 (0001ms, 25846ms total)
T2CF8 12487:021 JLINK_ReadMemEx(0x40023824, 0x0004 Bytes, ..., Flags = 0x02000004) -- CPU_ReadMem(4 bytes @ 0x40023824) - Data: 00 00 00 00  returns 0x04 (0001ms, 25847ms total)
T2CF8 12487:022 JLINK_ReadMemEx(0x40023830, 0x0008 Bytes, ..., Flags = 0x02000004) -- CPU_ReadMem(8 bytes @ 0x40023830) - Data: 00 00 10 00 00 00 00 00  returns 0x08 (0001ms, 25848ms total)
T2CF8 12487:023 JLINK_ReadMemEx(0x40023838, 0x0004 Bytes, ..., Flags = 0x02000004) -- CPU_ReadMem(4 bytes @ 0x40023838) - Data: 00 00 00 00  returns 0x04 (0001ms, 25849ms total)
T2CF8 12487:024 JLINK_ReadMemEx(0x40023840, 0x0004 Bytes, ..., Flags = 0x02000004) -- CPU_ReadMem(4 bytes @ 0x40023840) - Data: 00 00 00 00  returns 0x04 (0002ms, 25851ms total)
T2CF8 12487:028 JLINK_ReadMemEx(0x40023844, 0x0004 Bytes, ..., Flags = 0x02000004) -- CPU_ReadMem(4 bytes @ 0x40023844) - Data: 00 00 00 00  returns 0x04 (0001ms, 25852ms total)
T2CF8 12487:029 JLINK_ReadMemEx(0x40023850, 0x0008 Bytes, ..., Flags = 0x02000004) -- CPU_ReadMem(8 bytes @ 0x40023850) - Data: FF 91 67 7E F1 00 00 00  returns 0x08 (0001ms, 25853ms total)
T2CF8 12487:030 JLINK_ReadMemEx(0x40023858, 0x0004 Bytes, ..., Flags = 0x02000004) -- CPU_ReadMem(4 bytes @ 0x40023858) - Data: 01 00 00 00  returns 0x04 (0001ms, 25854ms total)
T2CF8 12487:031 JLINK_ReadMemEx(0x40023860, 0x0004 Bytes, ..., Flags = 0x02000004) -- CPU_ReadMem(4 bytes @ 0x40023860) - Data: FF C9 FE 36  returns 0x04 (0001ms, 25855ms total)
T2CF8 12487:032 JLINK_ReadMemEx(0x40023864, 0x0004 Bytes, ..., Flags = 0x02000004) -- CPU_ReadMem(4 bytes @ 0x40023864) - Data: 33 5F 07 00  returns 0x04 (0001ms, 25856ms total)
T2CF8 12487:035 JLINK_ReadMemEx(0x40023870, 0x0004 Bytes, ..., Flags = 0x02000004) -- CPU_ReadMem(4 bytes @ 0x40023870) - Data: 00 00 00 00  returns 0x04 (0001ms, 25857ms total)
T2CF8 12487:036 JLINK_ReadMemEx(0x40023874, 0x0004 Bytes, ..., Flags = 0x02000004) -- CPU_ReadMem(4 bytes @ 0x40023874) - Data: 00 00 00 1E  returns 0x04 (0001ms, 25858ms total)
T2CF8 12487:038 JLINK_ReadMemEx(0x40023880, 0x0004 Bytes, ..., Flags = 0x02000004) -- CPU_ReadMem(4 bytes @ 0x40023880) - Data: 00 00 00 00  returns 0x04 (0001ms, 25859ms total)
T2CF8 12487:039 JLINK_ReadMemEx(0x40023884, 0x0004 Bytes, ..., Flags = 0x02000004) -- CPU_ReadMem(4 bytes @ 0x40023884) - Data: 00 30 00 20  returns 0x04 (0001ms, 25860ms total)
T0820 12487:041 JLINK_IsHalted()  returns FALSE (0001ms, 25861ms total)
T0820 12487:142 JLINK_SWO_Read(..., Offset = 0x00, NumBytes = 0x400000) - Data: FE FE FF FF FF FF FE FE FE FE FE  NumBytesRead = 0x0B (0000ms, 25860ms total)
T0820 12487:145 JLINK_SWO_Control(JLINKARM_SWO_CMD_FLUSH, ...)  returns 0x00 (0000ms, 25860ms total)
T0820 12487:145 JLINK_IsHalted()  returns FALSE (0001ms, 25861ms total)
T0820 12487:246 JLINK_SWO_Read(..., Offset = 0x00, NumBytes = 0x400000) - Data: FF FF FF FF FF FE FE FE FE FF FF  NumBytesRead = 0x0B (0000ms, 25860ms total)
T0820 12487:249 JLINK_SWO_Control(JLINKARM_SWO_CMD_FLUSH, ...)  returns 0x00 (0000ms, 25860ms total)
